
**** 11/28/23 17:35:49 ****** PSpice 16.5.0 (April 2011) ****** ID# 0 ********

 ** Profile: "SCHEMATIC1-PAGE2_simulation"  [ C:\Users\Huang Xianmin\Desktop\Pspice_simulation_file\03_OrCAD_practice\03_OrCAD_practi


 ****     CIRCUIT DESCRIPTION


******************************************************************************




** Creating circuit file "PAGE2_simulation.cir" 
** WARNING: THIS AUTOMATICALLY GENERATED FILE MAY BE OVERWRITTEN BY SUBSEQUENT SIMULATIONS

*Libraries: 
* Profile Libraries :
* Local Libraries :
* From [PSPICE NETLIST] section of D:\Cadence\SPB_16.5\tools\PSpice\PSpice.ini file:
.lib "nom.lib" 

*Analysis directives: 
.TRAN  0 20ms 0 0.01 
.PROBE V(alias(*)) I(alias(*)) W(alias(*)) D(alias(*)) NOISE(alias(*)) 
.INC "..\SCHEMATIC1.net" 



**** INCLUDING SCHEMATIC1.net ****
* source 03_ORCAD_PRACTICE
R_R1         VIN VOUT  1k TC=0,0 
D_D1         VOUT 0 D1N4148 
V_Vs         VIN 0  AC 0
+SIN 0 10 1k 0 0 0
V_V1         N01092 N01183  AC 0
+SIN 0 12V 50Hz 0 0 0
D_D2         0 N01092 D1N4148 
D_D3         N01092 N01272 D1N4148 
D_D4         N01183 N01272 D1N4148 
D_D5         0 N01183 D1N4148 
R_R2         0 N01272  1k TC=0,0 

**** RESUMING PAGE2_simulation.cir ****
.END

**** 11/28/23 17:35:49 ****** PSpice 16.5.0 (April 2011) ****** ID# 0 ********

 ** Profile: "SCHEMATIC1-PAGE2_simulation"  [ C:\Users\Huang Xianmin\Desktop\Pspice_simulation_file\03_OrCAD_practice\03_OrCAD_practi


 ****     Diode MODEL PARAMETERS


******************************************************************************




               D1N4148         
          IS    2.682000E-09 
           N    1.836        
         ISR    1.565000E-09 
         IKF     .04417      
          BV  100            
         IBV  100.000000E-06 
          RS     .5664       
          TT   11.540000E-09 
         CJO    4.000000E-12 
          VJ     .5          
           M     .3333       


**** 11/28/23 17:35:49 ****** PSpice 16.5.0 (April 2011) ****** ID# 0 ********

 ** Profile: "SCHEMATIC1-PAGE2_simulation"  [ C:\Users\Huang Xianmin\Desktop\Pspice_simulation_file\03_OrCAD_practice\03_OrCAD_practi


 ****     INITIAL TRANSIENT SOLUTION       TEMPERATURE =   27.000 DEG C


******************************************************************************



 NODE   VOLTAGE     NODE   VOLTAGE     NODE   VOLTAGE     NODE   VOLTAGE


(  VIN)    0.0000  ( VOUT)-26.12E-24  (N01092) 914.5E-21 (N01183) 914.5E-21     

(N01272) 52.23E-24 




    VOLTAGE SOURCE CURRENTS
    NAME         CURRENT

    V_Vs        -2.612E-26
    V_V1         0.000E+00

    TOTAL POWER DISSIPATION   0.00E+00  WATTS



          JOB CONCLUDED

**** 11/28/23 17:35:49 ****** PSpice 16.5.0 (April 2011) ****** ID# 0 ********

 ** Profile: "SCHEMATIC1-PAGE2_simulation"  [ C:\Users\Huang Xianmin\Desktop\Pspice_simulation_file\03_OrCAD_practice\03_OrCAD_practi


 ****     JOB STATISTICS SUMMARY


******************************************************************************



  Total job time (using Solver 1)   =         .03
