
**** 12/12/23 13:55:30 ****** PSpice 16.5.0 (April 2011) ****** ID# 0 ********

 ** Profile: "SCHEMATIC1-bias"  [ C:\Users\Huang Xianmin\Desktop\Pspice_simulation_file\03_OrCAD_practice\04_project-pspicefiles\sche


 ****     CIRCUIT DESCRIPTION


******************************************************************************




** Creating circuit file "bias.cir" 
** WARNING: THIS AUTOMATICALLY GENERATED FILE MAY BE OVERWRITTEN BY SUBSEQUENT SIMULATIONS

*Libraries: 
* Profile Libraries :
* Local Libraries :
* From [PSPICE NETLIST] section of D:\Cadence\SPB_16.5\tools\PSpice\PSpice.ini file:
.lib "nom.lib" 

*Analysis directives: 
.AC DEC 10 1 1G
.PROBE V(alias(*)) I(alias(*)) W(alias(*)) D(alias(*)) NOISE(alias(*)) 
.INC "..\SCHEMATIC1.net" 



**** INCLUDING SCHEMATIC1.net ****
* source 04_PROJECT
V_V1         N14871 0  AC 10mV
+SIN 0 10mV 1k 0 0 0
R_R1         N14564 N14803  72k TC=0,0 
R_Rc         N14618 N14803  3.3k TC=0,0 
R_R2         0 N14564  24k TC=0,0 
R_Re1         N14672 N14676  56 TC=0,0 
R_Re2         0 N14672  1.8k TC=0,0 
R_RL         0 N14702  5.1k TC=0,0 
Q_Q1         N14618 N14564 N14676 Q2SC1815
C_C1         N14875 N14564  22uF  TC=0,0 
C_C2         N14618 N14702  22uF  TC=0,0 
C_C3         0 N14672  100uF  TC=0,0 
V_V2         N14803 0 10Vdc
R_Rs         N14871 N14875  600 TC=0,0 

**** RESUMING bias.cir ****
.END

**** 12/12/23 13:55:30 ****** PSpice 16.5.0 (April 2011) ****** ID# 0 ********

 ** Profile: "SCHEMATIC1-bias"  [ C:\Users\Huang Xianmin\Desktop\Pspice_simulation_file\03_OrCAD_practice\04_project-pspicefiles\sche


 ****     BJT MODEL PARAMETERS


******************************************************************************




               Q2SC1815        
               NPN             
       LEVEL    1            
          IS  639.500000E-18 
          BF  149.9          
          NF    1            
         VAF  172.5          
         IKF     .8587       
         ISE  750.100000E-18 
          NE    1.47         
          BR    6.575        
          NR    1            
         VAR  100            
         IKR     .4534       
         ISC    4.653000E-15 
          NC    1.185        
          NK     .5413       
         ISS    0            
          RE    0            
          RC     .7972       
         CJE    5.000000E-12 
         VJE     .75         
         MJE     .3333       
         CJC    4.858000E-12 
         VJC     .75         
         MJC     .3333       
        XCJC    1            
         CJS    0            
         VJS     .75         
          TF  314.300000E-12 
         VTF   10            
         ITF   13.01         
          TR   10.000000E-09 
         XTB    1.5          
          KF    0            
          AF    1            
          CN    2.42         
           D     .87         


**** 12/12/23 13:55:30 ****** PSpice 16.5.0 (April 2011) ****** ID# 0 ********

 ** Profile: "SCHEMATIC1-bias"  [ C:\Users\Huang Xianmin\Desktop\Pspice_simulation_file\03_OrCAD_practice\04_project-pspicefiles\sche


 ****     SMALL SIGNAL BIAS SOLUTION       TEMPERATURE =   27.000 DEG C


******************************************************************************



 NODE   VOLTAGE     NODE   VOLTAGE     NODE   VOLTAGE     NODE   VOLTAGE


(N14564)    2.3922 (N14618)    7.0515 (N14672)    1.6190 (N14676)    1.6694     

(N14702)    0.0000 (N14803)   10.0000 (N14871)    0.0000 (N14875)    0.0000 




    VOLTAGE SOURCE CURRENTS
    NAME         CURRENT

    V_V1         0.000E+00
    V_V2        -9.991E-04

    TOTAL POWER DISSIPATION   9.99E-03  WATTS



          JOB CONCLUDED

**** 12/12/23 13:55:30 ****** PSpice 16.5.0 (April 2011) ****** ID# 0 ********

 ** Profile: "SCHEMATIC1-bias"  [ C:\Users\Huang Xianmin\Desktop\Pspice_simulation_file\03_OrCAD_practice\04_project-pspicefiles\sche


 ****     JOB STATISTICS SUMMARY


******************************************************************************



  Total job time (using Solver 1)   =         .03
